
T2844 000:044 SEGGER J-Link V4.98b Log File (0001ms, 0027ms total)
T2844 000:044 DLL Compiled: Apr 10 2015 20:15:52 (0001ms, 0027ms total)
T2844 000:044 Logging started @ 2016-04-11 18:30 (0001ms, 0027ms total)
T2844 000:045 JLINK_SetWarnOutHandler(...) (0000ms, 0027ms total)
T2844 000:045 JLINK_OpenEx(...)
Firmware: J-Link V9 compiled Apr 10 2015 10:51:08
Hardware: V9.20
S/N: 29999997
Feature(s): GDB, RDI, FlashBP, FlashDL, JFlash, RDDI  returns O.K. (0025ms, 0052ms total)
T2844 000:070 JLINK_SetErrorOutHandler(...) (0000ms, 0052ms total)
T2844 000:070 JLINK_ExecCommand("Device = STM32F103ZE", ...)Device "STM32F103ZE" selected.  returns 0x00 (0000ms, 0052ms total)
T2844 000:070 JLINK_ExecCommand("ProjectFile = "F:\code\TEST\STM32´®¿ÚUART5\USER\JLinkSettings.ini"", ...)  returns 0x00 (0001ms, 0053ms total)
T2844 000:071 JLINK_ExecCommand("DisableConnectionTimeout", ...)  returns 0x01 (0000ms, 0053ms total)
T2844 000:071 JLINK_TIF_Select(JLINKARM_TIF_SWD)  returns 0x00 (0000ms, 0053ms total)
T2844 000:071 JLINK_SetSpeed(5000) (0001ms, 0054ms total)
T2844 000:072 JLINK_GetHardwareVersion()  returns 0x16760 (0000ms, 0054ms total)
T2844 000:072 JLINK_GetDLLVersion()  returns 49802 (0000ms, 0054ms total)
T2844 000:072 JLINK_GetFirmwareString(...) (0000ms, 0054ms total)
T2844 000:072 JLINK_GetDLLVersion()  returns 49802 (0000ms, 0054ms total)
T2844 000:072 JLINK_GetCompileDateTime() (0000ms, 0054ms total)
T2844 000:072 JLINK_GetFirmwareString(...) (0000ms, 0054ms total)
T2844 000:072 JLINK_GetHardwareVersion()  returns 0x16760 (0000ms, 0054ms total)
T2844 000:075 JLINK_GetId() >0x108 TIF>Found SWD-DP with ID 0x1BA01477 >0x0D TIF> >0x28 TIF> >0x0D TIF> >0x28 TIF> >0x0D TIF> >0x21 TIF> >0x0D TIF> >0x28 TIF> >0x0D TIF> >0x28 TIF> >0x0D TIF> >0x28 TIF> >0x0D TIF> >0x21 TIF> >0x0D TIF> >0x21 TIF> >0x0D TIF> >0x28 TIF> >0x0D TIF> >0x21 TIF> >0x0D TIF> >0x21 TIF> >0x108 TIF>Found SWD-DP with ID 0x1BA01477 >0x0D TIF> >0x21 TIF> >0x0D TIF> >0x28 TIF> >0x0D TIF> >0x28 TIF> >0x0D TIF> >0x21 TIF> >0x0D TIF> >0x28 TIF> >0x0D TIF> >0x21 TIF> >0x0D TIF> >0x21 TIF>
 >0x0D TIF> >0x21 TIF> >0x0D TIF> >0x21 TIF> >0x0D TIF> >0x28 TIF> >0x0D TIF> >0x28 TIF> >0x0D TIF> >0x21 TIF> >0x0D TIF> >0x28 TIF> >0x0D TIF> >0x28 TIF> >0x0D TIF> >0x28 TIF> >0x0D TIF> >0x21 TIF> >0x0D TIF> >0x21 TIF> >0x0D TIF> >0x28 TIF> >0x0D TIF> >0x21 TIF> >0x0D TIF> >0x21 TIF>Found Cortex-M3 r1p1, Little endian. -- CPU_WriteMem(4 bytes @ 0xE0002000) -- CPU_ReadMem(4 bytes @ 0xE000EDF0) -- CPU_ReadMem(4 bytes @ 0xE0002000)FPUnit: 6 code (BP) slots and 2 literal slots
 -- CPU_ReadMem(4 bytes @ 0xE000EDFC) -- CPU_ReadMem(4 bytes @ 0xE0001000) -- CPU_WriteMem(4 bytes @ 0xE0001000) -- CPU_ReadMem(4 bytes @ 0xE000ED88) -- CPU_WriteMem(4 bytes @ 0xE000ED88) -- CPU_ReadMem(4 bytes @ 0xE000ED88) -- CPU_WriteMem(4 bytes @ 0xE000ED88)CoreSight components:ROMTbl 0 @ E00FF000 -- CPU_ReadMem(16 bytes @ 0xE00FF000) -- CPU_ReadMem(16 bytes @ 0xE000EFF0) -- CPU_ReadMem(16 bytes @ 0xE000EFE0)ROMTbl 0 [0]: FFF0F000, CID: B105E00D, PID: 001BB000 SCS
 -- CPU_ReadMem(16 bytes @ 0xE0001FF0) -- CPU_ReadMem(16 bytes @ 0xE0001FE0)ROMTbl 0 [1]: FFF02000, CID: B105E00D, PID: 001BB002 DWT -- CPU_ReadMem(16 bytes @ 0xE0002FF0) -- CPU_ReadMem(16 bytes @ 0xE0002FE0)ROMTbl 0 [2]: FFF03000, CID: B105E00D, PID: 000BB003 FPB -- CPU_ReadMem(16 bytes @ 0xE0000FF0) -- CPU_ReadMem(16 bytes @ 0xE0000FE0)ROMTbl 0 [3]: FFF01000, CID: B105E00D, PID: 001BB001 ITM -- CPU_ReadMem(16 bytes @ 0xE00FF010) -- CPU_ReadMem(16 bytes @ 0xE0040FF0)
 -- CPU_ReadMem(16 bytes @ 0xE0040FE0)ROMTbl 0 [4]: FFF41000, CID: B105900D, PID: 001BB923 TPIU-Lite -- CPU_ReadMem(16 bytes @ 0xE0041FF0) -- CPU_ReadMem(16 bytes @ 0xE0041FE0)ROMTbl 0 [5]: FFF42000, CID: B105900D, PID: 101BB924 ETM-M3 >0x0D TIF> >0x21 TIF>  returns 0x1BA01477 (0030ms, 0084ms total)
T2844 000:105 JLINK_GetDebugInfo(0x100) -- Value=0xE00FF003  returns 0x00 (0000ms, 0084ms total)
T2844 000:105 JLINK_ReadMem (0xE00FFFF0, 0x0010 Bytes, ...) -- CPU is running -- CPU_ReadMem(16 bytes @ 0xE00FFFF0) - Data: 0D 00 00 00 10 00 00 00 05 00 00 00 B1 00 00 00  returns 0x00 (0001ms, 0085ms total)
T2844 000:106 JLINK_ReadMem (0xE00FFFD0, 0x0020 Bytes, ...) -- CPU is running -- CPU_ReadMem(32 bytes @ 0xE00FFFD0) - Data: 00 00 00 00 00 00 00 00 00 00 00 00 00 00 00 00 ...  returns 0x00 (0000ms, 0085ms total)
T2844 000:106 JLINK_ReadMem (0xE00FF000, 0x0018 Bytes, ...) -- CPU is running -- CPU_ReadMem(24 bytes @ 0xE00FF000) - Data: 03 F0 F0 FF 03 20 F0 FF 03 30 F0 FF 03 10 F0 FF ...  returns 0x00 (0001ms, 0086ms total)
T2844 000:107 JLINK_ReadMemU32(0xE000ED00, 0x0001 Items, ...) -- CPU is running -- CPU_ReadMem(4 bytes @ 0xE000ED00) - Data: 31 C2 1F 41  returns 0x01 (0000ms, 0086ms total)
T2844 000:107 JLINK_SetResetType(JLINKARM_RESET_TYPE_NORMAL)  returns JLINKARM_RESET_TYPE_NORMAL (0000ms, 0086ms total)
T2844 000:107 JLINK_Reset() -- CPU is running -- CPU_WriteMem(4 bytes @ 0xE000EDF0) -- CPU is running -- CPU_WriteMem(4 bytes @ 0xE000EDFC) >0x35 TIF> -- CPU is running -- CPU_WriteMem(4 bytes @ 0xE000ED0C) -- CPU is running -- CPU_ReadMem(4 bytes @ 0xE000EDF0) -- CPU is running -- CPU_ReadMem(4 bytes @ 0xE000EDF0) -- CPU is running -- CPU_WriteMem(4 bytes @ 0xE000EDF0) -- CPU is running -- CPU_WriteMem(4 bytes @ 0xE000EDFC) -- CPU is running -- CPU_ReadMem(4 bytes @ 0xE000EDF0)
 -- CPU_WriteMem(4 bytes @ 0xE0002000) -- CPU_ReadMem(4 bytes @ 0xE000EDFC) -- CPU_ReadMem(4 bytes @ 0xE0001000) (0016ms, 0102ms total)
T2844 000:123 JLINK_ReadReg(R15 (PC))  returns 0x080008A4 (0000ms, 0102ms total)
T2844 000:123 JLINK_ReadReg(XPSR)  returns 0x01000000 (0000ms, 0102ms total)
T2844 000:123 JLINK_Halt()  returns 0x00 (0000ms, 0102ms total)
T2844 000:123 JLINK_IsHalted()  returns TRUE (0000ms, 0102ms total)
T2844 000:123 JLINK_ReadMemU32(0xE000EDF0, 0x0001 Items, ...) -- CPU_ReadMem(4 bytes @ 0xE000EDF0) - Data: 03 00 03 00  returns 0x01 (0000ms, 0102ms total)
T2844 000:123 JLINK_WriteU32(0xE000EDF0, 0xA05F0003) -- CPU_WriteMem(4 bytes @ 0xE000EDF0)  returns 0x00 (0001ms, 0103ms total)
T2844 000:124 JLINK_WriteU32(0xE000EDFC, 0x01000000) -- CPU_WriteMem(4 bytes @ 0xE000EDFC)  returns 0x00 (0000ms, 0103ms total)
T2844 000:124 JLINK_ReadMemU32(0xE0002000, 0x0001 Items, ...) -- CPU_ReadMem(4 bytes @ 0xE0002000) - Data: 61 02 00 00  returns 0x01 (0000ms, 0103ms total)
T2844 000:124 JLINK_ReadMemU32(0xE0001000, 0x0001 Items, ...) -- CPU_ReadMem(4 bytes @ 0xE0001000) - Data: 01 00 00 40  returns 0x01 (0001ms, 0104ms total)
T2844 000:125 JLINK_WriteU32(0xE0001028, 0x00000000)  returns 0x00 (0000ms, 0104ms total)
T2844 000:125 JLINK_WriteU32(0xE0001038, 0x00000000)  returns 0x00 (0000ms, 0104ms total)
T2844 000:125 JLINK_WriteU32(0xE0001048, 0x00000000)  returns 0x00 (0000ms, 0104ms total)
T2844 000:125 JLINK_WriteU32(0xE0001058, 0x00000000)  returns 0x00 (0000ms, 0104ms total)
T2844 000:126 JLINK_GetHWStatus(...)  returns 0x00 (0000ms, 0104ms total)
T2844 000:126 JLINK_GetNumBPUnits(Type = 0xFFFFFF00)  returns 0x06 (0000ms, 0104ms total)
T2844 000:126 JLINK_GetNumBPUnits(Type = 0xF0)  returns 0x2000 (0000ms, 0104ms total)
T2844 000:126 JLINK_GetNumWPUnits()  returns 0x04 (0000ms, 0104ms total)
T2844 000:127 JLINK_GetSpeed()  returns 0xFA0 (0000ms, 0104ms total)
T2844 000:128 JLINK_ReadMemU32(0xE000E004, 0x0001 Items, ...) -- CPU_ReadMem(4 bytes @ 0xE000E004) - Data: 01 00 00 00  returns 0x01 (0000ms, 0104ms total)
T2844 000:128 JLINK_ReadMemU32(0xE000E004, 0x0001 Items, ...) -- CPU_ReadMem(4 bytes @ 0xE000E004) - Data: 01 00 00 00  returns 0x01 (0000ms, 0104ms total)
T2844 000:128 JLINK_WriteMem(0xE0001000, 0x001C Bytes, ...) - Data: 01 00 00 00 00 00 00 00 00 00 00 00 00 00 00 00 ... -- CPU_WriteMem(4 bytes @ 0xE0001028) -- CPU_WriteMem(4 bytes @ 0xE0001038) -- CPU_WriteMem(4 bytes @ 0xE0001048) -- CPU_WriteMem(4 bytes @ 0xE0001058) -- CPU_WriteMem(28 bytes @ 0xE0001000)  returns 0x1C (0002ms, 0106ms total)
T2844 000:130 JLINK_ReadMem (0xE0001000, 0x001C Bytes, ...) -- CPU_ReadMem(28 bytes @ 0xE0001000) - Data: 01 00 00 40 00 00 00 00 00 00 00 00 00 00 00 00 ...  returns 0x00 (0000ms, 0106ms total)
T2844 000:130 JLINK_ReadReg(R15 (PC))  returns 0x080008A4 (0000ms, 0106ms total)
T2844 000:131 JLINK_ReadReg(XPSR)  returns 0x01000000 (0000ms, 0107ms total)
T2844 000:279 JLINK_SetResetType(JLINKARM_RESET_TYPE_NORMAL)  returns JLINKARM_RESET_TYPE_NORMAL (0000ms, 0107ms total)
T2844 000:279 JLINK_Reset() -- CPU_WriteMem(4 bytes @ 0xE000EDF0) -- CPU_WriteMem(4 bytes @ 0xE000EDFC) >0x35 TIF> -- CPU_WriteMem(4 bytes @ 0xE000ED0C) -- CPU_ReadMem(4 bytes @ 0xE000EDF0) -- CPU_ReadMem(4 bytes @ 0xE000EDF0) -- CPU_WriteMem(4 bytes @ 0xE000EDF0) -- CPU_WriteMem(4 bytes @ 0xE000EDFC) -- CPU is running -- CPU_ReadMem(4 bytes @ 0xE000EDF0) -- CPU_WriteMem(4 bytes @ 0xE0002000) -- CPU_ReadMem(4 bytes @ 0xE000EDFC) -- CPU_ReadMem(4 bytes @ 0xE0001000) (0016ms, 0123ms total)
T2844 000:295 JLINK_ReadReg(R15 (PC))  returns 0x080008A4 (0000ms, 0123ms total)
T2844 000:295 JLINK_ReadReg(XPSR)  returns 0x01000000 (0000ms, 0123ms total)
T2844 000:296 JLINK_ReadMem (0x080008A4, 0x003C Bytes, ...) -- CPU_ReadMem(128 bytes @ 0x08000880) -- Updating C cache (128 bytes @ 0x08000880) -- Read from C cache (60 bytes @ 0x080008A4) - Data: 09 48 80 47 09 48 00 47 FE E7 FE E7 FE E7 FE E7 ...  returns 0x00 (0001ms, 0124ms total)
T2844 000:303 JLINK_ReadReg(R0)  returns 0x00000000 (0000ms, 0124ms total)
T2844 000:303 JLINK_ReadReg(R1)  returns 0x00000003 (0000ms, 0124ms total)
T2844 000:303 JLINK_ReadReg(R2)  returns 0x40022000 (0000ms, 0124ms total)
T2844 000:303 JLINK_ReadReg(R3)  returns 0x04C11DB7 (0000ms, 0124ms total)
T2844 000:303 JLINK_ReadReg(R4)  returns 0x00000000 (0000ms, 0124ms total)
T2844 000:303 JLINK_ReadReg(R5)  returns 0x00000000 (0000ms, 0124ms total)
T2844 000:303 JLINK_ReadReg(R6)  returns 0x00000000 (0000ms, 0124ms total)
T2844 000:303 JLINK_ReadReg(R7)  returns 0x00000000 (0000ms, 0124ms total)
T2844 000:303 JLINK_ReadReg(R8)  returns 0x00000000 (0000ms, 0124ms total)
T2844 000:303 JLINK_ReadReg(R9)  returns 0x20000160 (0000ms, 0124ms total)
T2844 000:303 JLINK_ReadReg(R10)  returns 0x00000000 (0000ms, 0124ms total)
T2844 000:303 JLINK_ReadReg(R11)  returns 0x00000000 (0000ms, 0124ms total)
T2844 000:303 JLINK_ReadReg(R12)  returns 0x00000000 (0000ms, 0124ms total)
T2844 000:303 JLINK_ReadReg(R13 (SP))  returns 0x200006D8 (0000ms, 0124ms total)
T2844 000:303 JLINK_ReadReg(R14)  returns 0xFFFFFFFF (0000ms, 0124ms total)
T2844 000:303 JLINK_ReadReg(R15 (PC))  returns 0x080008A4 (0000ms, 0124ms total)
T2844 000:303 JLINK_ReadReg(XPSR)  returns 0x01000000 (0000ms, 0124ms total)
T2844 000:303 JLINK_ReadReg(MSP)  returns 0x200006D8 (0000ms, 0124ms total)
T2844 000:303 JLINK_ReadReg(PSP)  returns 0x20000800 (0000ms, 0124ms total)
T2844 000:303 JLINK_ReadReg(BASEPRI)  returns 0x00000000 (0000ms, 0124ms total)
T2844 000:303 JLINK_ReadReg(CONTROL)  returns 0x00000000 (0000ms, 0124ms total)
T2844 000:303 JLINK_ReadReg(FAULTMASK)  returns 0x00000000 (0000ms, 0124ms total)
T2844 000:303 JLINK_ReadReg(BASEPRI_MAX)  returns 0x00000000 (0000ms, 0124ms total)
T2844 006:769 JLINK_ReadMem (0x08000774, 0x003C Bytes, ...) -- CPU_ReadMem(128 bytes @ 0x08000740) -- Updating C cache (128 bytes @ 0x08000740) -- Read from C cache (60 bytes @ 0x08000774) - Data: 46 49 89 88 C8 B2 46 49 09 78 11 F0 80 0F 2E D1 ...  returns 0x00 (0002ms, 0126ms total)
T312C 008:301 JLINK_SetBPEx(Addr = 0x08000774, Type = 0xFFFFFFF2)  returns 0x00000001 (0001ms, 0127ms total)
T312C 008:302 JLINK_SetBPEx(Addr = 0x080001E8, Type = 0xFFFFFFF2)  returns 0x00000002 (0000ms, 0127ms total)
T312C 008:302 JLINK_Go() -- CPU_WriteMem(4 bytes @ 0xE0002000) -- CPU_WriteMem(4 bytes @ 0xE0002000) -- CPU_ReadMem(4 bytes @ 0xE0001000) -- CPU_WriteMem(4 bytes @ 0xE0002008) -- CPU_WriteMem(4 bytes @ 0xE000200C) -- CPU_WriteMem(4 bytes @ 0xE0002010) -- CPU_WriteMem(4 bytes @ 0xE0002014) -- CPU_WriteMem(4 bytes @ 0xE0002018) -- CPU_WriteMem(4 bytes @ 0xE000201C) -- CPU_WriteMem(4 bytes @ 0xE0001004) (0002ms, 0129ms total)
T312C 008:405 JLINK_IsHalted()  returns TRUE (0001ms, 0130ms total)
T312C 008:406 JLINK_Halt()  returns 0x00 (0000ms, 0129ms total)
T312C 008:406 JLINK_IsHalted()  returns TRUE (0000ms, 0129ms total)
T312C 008:406 JLINK_IsHalted()  returns TRUE (0000ms, 0129ms total)
T312C 008:406 JLINK_IsHalted()  returns TRUE (0001ms, 0130ms total)
T312C 008:407 JLINK_ReadReg(R15 (PC))  returns 0x080001E8 (0000ms, 0129ms total)
T312C 008:407 JLINK_ReadReg(XPSR)  returns 0x81000000 (0000ms, 0129ms total)
T312C 008:407 JLINK_ClrBPEx(BPHandle = 0x00000001)  returns 0x00 (0000ms, 0129ms total)
T312C 008:407 JLINK_ClrBPEx(BPHandle = 0x00000002)  returns 0x00 (0000ms, 0129ms total)
T312C 008:407 JLINK_ReadMemU32(0xE000ED30, 0x0001 Items, ...) -- CPU_ReadMem(4 bytes @ 0xE000ED30) - Data: 03 00 00 00  returns 0x01 (0000ms, 0129ms total)
T312C 008:407 JLINK_ReadMemU32(0xE0001028, 0x0001 Items, ...) -- CPU_ReadMem(4 bytes @ 0xE0001028) - Data: 00 00 00 00  returns 0x01 (0000ms, 0129ms total)
T312C 008:407 JLINK_ReadMemU32(0xE0001038, 0x0001 Items, ...) -- CPU_ReadMem(4 bytes @ 0xE0001038) - Data: 00 02 00 00  returns 0x01 (0001ms, 0130ms total)
T312C 008:408 JLINK_ReadMemU32(0xE0001048, 0x0001 Items, ...) -- CPU_ReadMem(4 bytes @ 0xE0001048) - Data: 00 00 00 00  returns 0x01 (0000ms, 0130ms total)
T312C 008:408 JLINK_ReadMemU32(0xE0001058, 0x0001 Items, ...) -- CPU_ReadMem(4 bytes @ 0xE0001058) - Data: 00 00 00 00  returns 0x01 (0001ms, 0131ms total)
T2844 008:409 JLINK_ReadReg(R0)  returns 0x00000008 (0000ms, 0131ms total)
T2844 008:409 JLINK_ReadReg(R1)  returns 0x200006D0 (0000ms, 0131ms total)
T2844 008:409 JLINK_ReadReg(R2)  returns 0x40010800 (0000ms, 0131ms total)
T2844 008:409 JLINK_ReadReg(R3)  returns 0x28030001 (0000ms, 0131ms total)
T2844 008:409 JLINK_ReadReg(R4)  returns 0x00000000 (0000ms, 0131ms total)
T2844 008:409 JLINK_ReadReg(R5)  returns 0x20000078 (0000ms, 0131ms total)
T2844 008:409 JLINK_ReadReg(R6)  returns 0x00000000 (0000ms, 0131ms total)
T2844 008:409 JLINK_ReadReg(R7)  returns 0x00000000 (0000ms, 0131ms total)
T2844 008:409 JLINK_ReadReg(R8)  returns 0x00000000 (0000ms, 0131ms total)
T2844 008:409 JLINK_ReadReg(R9)  returns 0x20000160 (0000ms, 0131ms total)
T2844 008:409 JLINK_ReadReg(R10)  returns 0x08001784 (0000ms, 0131ms total)
T2844 008:409 JLINK_ReadReg(R11)  returns 0x00000000 (0000ms, 0131ms total)
T2844 008:409 JLINK_ReadReg(R12)  returns 0x00000001 (0000ms, 0131ms total)
T2844 008:409 JLINK_ReadReg(R13 (SP))  returns 0x200006D8 (0000ms, 0131ms total)
T2844 008:409 JLINK_ReadReg(R14)  returns 0x0800059F (0000ms, 0131ms total)
T2844 008:409 JLINK_ReadReg(R15 (PC))  returns 0x080001E8 (0000ms, 0131ms total)
T2844 008:409 JLINK_ReadReg(XPSR)  returns 0x81000000 (0000ms, 0131ms total)
T2844 008:409 JLINK_ReadReg(MSP)  returns 0x200006D8 (0000ms, 0131ms total)
T2844 008:409 JLINK_ReadReg(PSP)  returns 0x20000800 (0000ms, 0131ms total)
T2844 008:409 JLINK_ReadReg(BASEPRI)  returns 0x00000000 (0000ms, 0131ms total)
T2844 008:409 JLINK_ReadReg(CONTROL)  returns 0x00000000 (0000ms, 0131ms total)
T2844 008:409 JLINK_ReadReg(FAULTMASK)  returns 0x00000000 (0000ms, 0131ms total)
T2844 008:409 JLINK_ReadReg(BASEPRI_MAX)  returns 0x00000000 (0000ms, 0131ms total)
T2844 008:410 JLINK_WriteReg(R0, 0x00000008)  returns 0x00 (0000ms, 0131ms total)
T2844 008:410 JLINK_WriteReg(R1, 0x200006D0)  returns 0x00 (0000ms, 0131ms total)
T2844 008:410 JLINK_WriteReg(R2, 0x40010800)  returns 0x00 (0000ms, 0131ms total)
T2844 008:410 JLINK_WriteReg(R3, 0x28030001)  returns 0x00 (0000ms, 0131ms total)
T2844 008:410 JLINK_WriteReg(R4, 0x00000000)  returns 0x00 (0000ms, 0131ms total)
T2844 008:410 JLINK_WriteReg(R5, 0x20000078)  returns 0x00 (0000ms, 0131ms total)
T2844 008:410 JLINK_WriteReg(R6, 0x00000000)  returns 0x00 (0000ms, 0131ms total)
T2844 008:410 JLINK_WriteReg(R7, 0x00000000)  returns 0x00 (0000ms, 0131ms total)
T2844 008:410 JLINK_WriteReg(R8, 0x00000000)  returns 0x00 (0000ms, 0131ms total)
T2844 008:410 JLINK_WriteReg(R9, 0x20000160)  returns 0x00 (0000ms, 0131ms total)
T2844 008:410 JLINK_WriteReg(R10, 0x08001784)  returns 0x00 (0000ms, 0131ms total)
T2844 008:410 JLINK_WriteReg(R11, 0x00000000)  returns 0x00 (0000ms, 0131ms total)
T2844 008:410 JLINK_WriteReg(R12, 0x00000001)  returns 0x00 (0000ms, 0131ms total)
T2844 008:410 JLINK_WriteReg(R13 (SP), 0x200006D8)  returns 0x00 (0000ms, 0131ms total)
T2844 008:410 JLINK_WriteReg(R14, 0x0800059F)  returns 0x00 (0000ms, 0131ms total)
T2844 008:410 JLINK_WriteReg(R15 (PC), 0x080001E8)  returns 0x00 (0000ms, 0131ms total)
T2844 008:410 JLINK_WriteReg(XPSR, 0x81000000)  returns 0x00 (0000ms, 0131ms total)
T2844 008:410 JLINK_WriteReg(MSP, 0x200006D8)  returns 0x00 (0000ms, 0131ms total)
T2844 008:410 JLINK_WriteReg(PSP, 0x20000800)  returns 0x00 (0000ms, 0131ms total)
T2844 008:410 JLINK_WriteReg(BASEPRI, 0x00000000)  returns 0x00 (0000ms, 0131ms total)
T2844 008:410 JLINK_WriteReg(CONTROL, 0x00000000)  returns 0x00 (0000ms, 0131ms total)
T2844 008:410 JLINK_WriteReg(FAULTMASK, 0x00000000)  returns 0x00 (0000ms, 0131ms total)
T2844 008:410 JLINK_WriteReg(BASEPRI_MAX, 0x00000000)  returns 0x00 (0000ms, 0131ms total)
T2844 008:410 JLINK_ReadMem (0x00000000, 0x0001 Bytes, ...) -- CPU_ReadMem(4 bytes @ 0x00000004) -- CPU_ReadMem(64 bytes @ 0x08000000) -- Updating C cache (64 bytes @ 0x08000000) -- Read from C cache (1 bytes @ 0x08000000) - Data: D8  returns 0x00 (0002ms, 0133ms total)
T2844 008:412 JLINK_ReadReg(R0)  returns 0x00000008 (0000ms, 0133ms total)
T2844 008:412 JLINK_ReadReg(R1)  returns 0x200006D0 (0000ms, 0133ms total)
T2844 008:413 JLINK_ReadReg(R2)  returns 0x40010800 (0000ms, 0133ms total)
T2844 008:413 JLINK_ReadReg(R3)  returns 0x28030001 (0000ms, 0133ms total)
T2844 008:413 JLINK_ReadReg(R4)  returns 0x00000000 (0000ms, 0133ms total)
T2844 008:413 JLINK_ReadReg(R5)  returns 0x20000078 (0000ms, 0133ms total)
T2844 008:413 JLINK_ReadReg(R6)  returns 0x00000000 (0000ms, 0133ms total)
T2844 008:413 JLINK_ReadReg(R7)  returns 0x00000000 (0000ms, 0133ms total)
T2844 008:413 JLINK_ReadReg(R8)  returns 0x00000000 (0000ms, 0133ms total)
T2844 008:413 JLINK_ReadReg(R9)  returns 0x20000160 (0000ms, 0133ms total)
T2844 008:413 JLINK_ReadReg(R10)  returns 0x08001784 (0000ms, 0133ms total)
T2844 008:413 JLINK_ReadReg(R11)  returns 0x00000000 (0000ms, 0133ms total)
T2844 008:413 JLINK_ReadReg(R12)  returns 0x00000001 (0000ms, 0133ms total)
T2844 008:413 JLINK_ReadReg(R13 (SP))  returns 0x200006D8 (0000ms, 0133ms total)
T2844 008:413 JLINK_ReadReg(R14)  returns 0x0800059F (0000ms, 0133ms total)
T2844 008:413 JLINK_ReadReg(R15 (PC))  returns 0x080001E8 (0000ms, 0133ms total)
T2844 008:413 JLINK_ReadReg(XPSR)  returns 0x81000000 (0000ms, 0133ms total)
T2844 008:413 JLINK_ReadReg(MSP)  returns 0x200006D8 (0000ms, 0133ms total)
T2844 008:413 JLINK_ReadReg(PSP)  returns 0x20000800 (0000ms, 0133ms total)
T2844 008:413 JLINK_ReadReg(BASEPRI)  returns 0x00000000 (0000ms, 0133ms total)
T2844 008:413 JLINK_ReadReg(CONTROL)  returns 0x00000000 (0000ms, 0133ms total)
T2844 008:413 JLINK_ReadReg(FAULTMASK)  returns 0x00000000 (0000ms, 0133ms total)
T2844 008:413 JLINK_ReadReg(BASEPRI_MAX)  returns 0x00000000 (0000ms, 0133ms total)
T2844 008:413 JLINK_WriteReg(R0, 0x00000008)  returns 0x00 (0000ms, 0133ms total)
T2844 008:413 JLINK_WriteReg(R1, 0x200006D0)  returns 0x00 (0000ms, 0133ms total)
T2844 008:413 JLINK_WriteReg(R2, 0x40010800)  returns 0x00 (0000ms, 0133ms total)
T2844 008:413 JLINK_WriteReg(R3, 0x28030001)  returns 0x00 (0000ms, 0133ms total)
T2844 008:413 JLINK_WriteReg(R4, 0x00000000)  returns 0x00 (0000ms, 0133ms total)
T2844 008:413 JLINK_WriteReg(R5, 0x20000078)  returns 0x00 (0000ms, 0133ms total)
T2844 008:413 JLINK_WriteReg(R6, 0x00000000)  returns 0x00 (0000ms, 0133ms total)
T2844 008:413 JLINK_WriteReg(R7, 0x00000000)  returns 0x00 (0000ms, 0133ms total)
T2844 008:413 JLINK_WriteReg(R8, 0x00000000)  returns 0x00 (0000ms, 0133ms total)
T2844 008:413 JLINK_WriteReg(R9, 0x20000160)  returns 0x00 (0000ms, 0133ms total)
T2844 008:413 JLINK_WriteReg(R10, 0x08001784)  returns 0x00 (0000ms, 0133ms total)
T2844 008:413 JLINK_WriteReg(R11, 0x00000000)  returns 0x00 (0000ms, 0133ms total)
T2844 008:413 JLINK_WriteReg(R12, 0x00000001)  returns 0x00 (0000ms, 0133ms total)
T2844 008:414 JLINK_WriteReg(R13 (SP), 0x200006D8)  returns 0x00 (0000ms, 0134ms total)
T2844 008:414 JLINK_WriteReg(R14, 0x0800059F)  returns 0x00 (0000ms, 0134ms total)
T2844 008:414 JLINK_WriteReg(R15 (PC), 0x080001E8)  returns 0x00 (0000ms, 0134ms total)
T2844 008:414 JLINK_WriteReg(XPSR, 0x81000000)  returns 0x00 (0000ms, 0134ms total)
T2844 008:414 JLINK_WriteReg(MSP, 0x200006D8)  returns 0x00 (0000ms, 0134ms total)
T2844 008:414 JLINK_WriteReg(PSP, 0x20000800)  returns 0x00 (0000ms, 0134ms total)
T2844 008:414 JLINK_WriteReg(BASEPRI, 0x00000000)  returns 0x00 (0000ms, 0134ms total)
T2844 008:414 JLINK_WriteReg(CONTROL, 0x00000000)  returns 0x00 (0000ms, 0134ms total)
T2844 008:414 JLINK_WriteReg(FAULTMASK, 0x00000000)  returns 0x00 (0000ms, 0134ms total)
T2844 008:414 JLINK_WriteReg(BASEPRI_MAX, 0x00000000)  returns 0x00 (0000ms, 0134ms total)
T312C 008:489 JLINK_ReadReg(R0)  returns 0x00000008 (0000ms, 0134ms total)
T312C 008:489 JLINK_ReadReg(R1)  returns 0x200006D0 (0000ms, 0134ms total)
T312C 008:489 JLINK_ReadReg(R2)  returns 0x40010800 (0000ms, 0134ms total)
T312C 008:489 JLINK_ReadReg(R3)  returns 0x28030001 (0000ms, 0134ms total)
T312C 008:489 JLINK_ReadReg(R4)  returns 0x00000000 (0000ms, 0134ms total)
T312C 008:489 JLINK_ReadReg(R5)  returns 0x20000078 (0000ms, 0134ms total)
T312C 008:489 JLINK_ReadReg(R6)  returns 0x00000000 (0000ms, 0134ms total)
T312C 008:489 JLINK_ReadReg(R7)  returns 0x00000000 (0000ms, 0134ms total)
T312C 008:489 JLINK_ReadReg(R8)  returns 0x00000000 (0000ms, 0134ms total)
T312C 008:489 JLINK_ReadReg(R9)  returns 0x20000160 (0000ms, 0134ms total)
T312C 008:489 JLINK_ReadReg(R10)  returns 0x08001784 (0000ms, 0134ms total)
T312C 008:489 JLINK_ReadReg(R11)  returns 0x00000000 (0000ms, 0134ms total)
T312C 008:489 JLINK_ReadReg(R12)  returns 0x00000001 (0000ms, 0134ms total)
T312C 008:489 JLINK_ReadReg(R13 (SP))  returns 0x200006D8 (0000ms, 0134ms total)
T312C 008:489 JLINK_ReadReg(R14)  returns 0x0800059F (0000ms, 0134ms total)
T312C 008:489 JLINK_ReadReg(R15 (PC))  returns 0x080001E8 (0000ms, 0134ms total)
T312C 008:489 JLINK_ReadReg(XPSR)  returns 0x81000000 (0000ms, 0134ms total)
T312C 008:489 JLINK_ReadReg(MSP)  returns 0x200006D8 (0000ms, 0134ms total)
T312C 008:489 JLINK_ReadReg(PSP)  returns 0x20000800 (0000ms, 0134ms total)
T312C 008:489 JLINK_ReadReg(BASEPRI)  returns 0x00000000 (0000ms, 0134ms total)
T312C 008:489 JLINK_ReadReg(CONTROL)  returns 0x00000000 (0000ms, 0134ms total)
T312C 008:489 JLINK_ReadReg(FAULTMASK)  returns 0x00000000 (0000ms, 0134ms total)
T312C 008:489 JLINK_ReadReg(BASEPRI_MAX)  returns 0x00000000 (0000ms, 0134ms total)
T312C 016:213 JLINK_Step() -- CPU_ReadMem(64 bytes @ 0x080001C0) -- Updating C cache (64 bytes @ 0x080001C0) -- Read from C cache (2 bytes @ 0x080001E8) -- CPU_ReadMem(4 bytes @ 0xE0001004) -- Simulated  returns 0x00 (0001ms, 0135ms total)
T312C 016:214 JLINK_ReadReg(R15 (PC))  returns 0x080002B2 (0000ms, 0135ms total)
T312C 016:214 JLINK_ReadReg(XPSR)  returns 0x81000000 (0000ms, 0135ms total)
T312C 016:214 JLINK_SetBPEx(Addr = 0x08000774, Type = 0xFFFFFFF2)  returns 0x00000003 (0000ms, 0135ms total)
T312C 016:214 JLINK_SetBPEx(Addr = 0x080001E8, Type = 0xFFFFFFF2)  returns 0x00000004 (0000ms, 0135ms total)
T312C 016:214 JLINK_Go() -- CPU_WriteMem(4 bytes @ 0xE0002000) -- CPU_WriteMem(4 bytes @ 0xE0002000) -- CPU_ReadMem(4 bytes @ 0xE0001000) -- CPU_WriteMem(4 bytes @ 0xE0001004) (0002ms, 0137ms total)
T312C 016:317 JLINK_IsHalted()  returns TRUE (0001ms, 0138ms total)
T312C 016:318 JLINK_Halt()  returns 0x00 (0000ms, 0137ms total)
T312C 016:318 JLINK_IsHalted()  returns TRUE (0001ms, 0138ms total)
T312C 016:319 JLINK_IsHalted()  returns TRUE (0000ms, 0137ms total)
T312C 016:319 JLINK_IsHalted()  returns TRUE (0000ms, 0137ms total)
T312C 016:319 JLINK_ReadReg(R15 (PC))  returns 0x08000774 (0000ms, 0137ms total)
T312C 016:319 JLINK_ReadReg(XPSR)  returns 0x01000045 (0000ms, 0137ms total)
T312C 016:319 JLINK_ClrBPEx(BPHandle = 0x00000003)  returns 0x00 (0000ms, 0137ms total)
T312C 016:319 JLINK_ClrBPEx(BPHandle = 0x00000004)  returns 0x00 (0000ms, 0137ms total)
T312C 016:319 JLINK_ReadMemU32(0xE000ED30, 0x0001 Items, ...) -- CPU_ReadMem(4 bytes @ 0xE000ED30) - Data: 03 00 00 00  returns 0x01 (0000ms, 0137ms total)
T312C 016:319 JLINK_ReadMemU32(0xE0001028, 0x0001 Items, ...) -- CPU_ReadMem(4 bytes @ 0xE0001028) - Data: 00 00 00 00  returns 0x01 (0001ms, 0138ms total)
T312C 016:320 JLINK_ReadMemU32(0xE0001038, 0x0001 Items, ...) -- CPU_ReadMem(4 bytes @ 0xE0001038) - Data: 00 02 00 00  returns 0x01 (0000ms, 0138ms total)
T312C 016:320 JLINK_ReadMemU32(0xE0001048, 0x0001 Items, ...) -- CPU_ReadMem(4 bytes @ 0xE0001048) - Data: 00 00 00 00  returns 0x01 (0000ms, 0138ms total)
T312C 016:320 JLINK_ReadMemU32(0xE0001058, 0x0001 Items, ...) -- CPU_ReadMem(4 bytes @ 0xE0001058) - Data: 00 00 00 00  returns 0x01 (0001ms, 0139ms total)
T2844 016:322 JLINK_ReadReg(R0)  returns 0x00000008 (0000ms, 0139ms total)
T2844 016:322 JLINK_ReadReg(R1)  returns 0x000000F8 (0000ms, 0139ms total)
T2844 016:322 JLINK_ReadReg(R2)  returns 0x40010800 (0001ms, 0140ms total)
T2844 016:323 JLINK_ReadReg(R3)  returns 0x28030001 (0000ms, 0140ms total)
T2844 016:323 JLINK_ReadReg(R4)  returns 0x00000000 (0000ms, 0140ms total)
T2844 016:323 JLINK_ReadReg(R5)  returns 0x20000078 (0000ms, 0140ms total)
T2844 016:323 JLINK_ReadReg(R6)  returns 0x00000000 (0000ms, 0140ms total)
T2844 016:323 JLINK_ReadReg(R7)  returns 0x00000000 (0000ms, 0140ms total)
T2844 016:323 JLINK_ReadReg(R8)  returns 0x00000000 (0000ms, 0140ms total)
T2844 016:323 JLINK_ReadReg(R9)  returns 0x20000160 (0000ms, 0140ms total)
T2844 016:323 JLINK_ReadReg(R10)  returns 0x08001784 (0000ms, 0140ms total)
T2844 016:323 JLINK_ReadReg(R11)  returns 0x00000000 (0000ms, 0140ms total)
T2844 016:323 JLINK_ReadReg(R12)  returns 0x00000001 (0000ms, 0140ms total)
T2844 016:323 JLINK_ReadReg(R13 (SP))  returns 0x200006B8 (0000ms, 0140ms total)
T2844 016:323 JLINK_ReadReg(R14)  returns 0xFFFFFFF9 (0000ms, 0140ms total)
T2844 016:323 JLINK_ReadReg(R15 (PC))  returns 0x08000774 (0000ms, 0140ms total)
T2844 016:323 JLINK_ReadReg(XPSR)  returns 0x01000045 (0000ms, 0140ms total)
T2844 016:323 JLINK_ReadReg(MSP)  returns 0x200006B8 (0000ms, 0140ms total)
T2844 016:323 JLINK_ReadReg(PSP)  returns 0x20000800 (0000ms, 0140ms total)
T2844 016:323 JLINK_ReadReg(BASEPRI)  returns 0x00000000 (0000ms, 0140ms total)
T2844 016:323 JLINK_ReadReg(CONTROL)  returns 0x00000000 (0000ms, 0140ms total)
T2844 016:323 JLINK_ReadReg(FAULTMASK)  returns 0x00000000 (0000ms, 0140ms total)
T2844 016:323 JLINK_ReadReg(BASEPRI_MAX)  returns 0x00000000 (0000ms, 0140ms total)
T2844 016:323 JLINK_ReadMem (0x200006D0, 0x0004 Bytes, ...) -- CPU_ReadMem(64 bytes @ 0x200006C0) -- Updating C cache (64 bytes @ 0x200006C0) -- Read from C cache (4 bytes @ 0x200006D0) - Data: B2 02 00 08  returns 0x00 (0001ms, 0141ms total)
T2844 016:324 JLINK_ReadMem (0x200006D4, 0x0004 Bytes, ...) -- Read from C cache (4 bytes @ 0x200006D4) - Data: 00 00 00 81  returns 0x00 (0000ms, 0141ms total)
T2844 016:324 JLINK_ReadMem (0x200006CC, 0x0004 Bytes, ...) -- Read from C cache (4 bytes @ 0x200006CC) - Data: 9F 05 00 08  returns 0x00 (0000ms, 0141ms total)
T2844 016:324 JLINK_ReadMem (0xE000ED28, 0x0004 Bytes, ...) -- CPU_ReadMem(4 bytes @ 0xE000ED28) - Data: 00 00 00 00  returns 0x00 (0000ms, 0141ms total)
T2844 016:324 JLINK_WriteReg(R0, 0x00000008)  returns 0x00 (0000ms, 0141ms total)
T2844 016:324 JLINK_WriteReg(R1, 0x000000F8)  returns 0x00 (0000ms, 0141ms total)
T2844 016:324 JLINK_WriteReg(R2, 0x40010800)  returns 0x00 (0000ms, 0141ms total)
T2844 016:324 JLINK_WriteReg(R3, 0x28030001)  returns 0x00 (0000ms, 0141ms total)
T2844 016:324 JLINK_WriteReg(R4, 0x00000000)  returns 0x00 (0000ms, 0141ms total)
T2844 016:324 JLINK_WriteReg(R5, 0x20000078)  returns 0x00 (0000ms, 0141ms total)
T2844 016:324 JLINK_WriteReg(R6, 0x00000000)  returns 0x00 (0000ms, 0141ms total)
T2844 016:324 JLINK_WriteReg(R7, 0x00000000)  returns 0x00 (0000ms, 0141ms total)
T2844 016:324 JLINK_WriteReg(R8, 0x00000000)  returns 0x00 (0000ms, 0141ms total)
T2844 016:324 JLINK_WriteReg(R9, 0x20000160)  returns 0x00 (0001ms, 0142ms total)
T2844 016:325 JLINK_WriteReg(R10, 0x08001784)  returns 0x00 (0000ms, 0142ms total)
T2844 016:325 JLINK_WriteReg(R11, 0x00000000)  returns 0x00 (0000ms, 0142ms total)
T2844 016:325 JLINK_WriteReg(R12, 0x00000001)  returns 0x00 (0000ms, 0142ms total)
T2844 016:325 JLINK_WriteReg(R13 (SP), 0x200006B8)  returns 0x00 (0000ms, 0142ms total)
T2844 016:325 JLINK_WriteReg(R14, 0xFFFFFFF9)  returns 0x00 (0000ms, 0142ms total)
T2844 016:325 JLINK_WriteReg(R15 (PC), 0x08000774)  returns 0x00 (0000ms, 0142ms total)
T2844 016:325 JLINK_WriteReg(XPSR, 0x01000045)  returns 0x00 (0000ms, 0142ms total)
T2844 016:325 JLINK_WriteReg(MSP, 0x200006B8)  returns 0x00 (0000ms, 0142ms total)
T2844 016:325 JLINK_WriteReg(PSP, 0x20000800)  returns 0x00 (0000ms, 0142ms total)
T2844 016:325 JLINK_WriteReg(BASEPRI, 0x00000000)  returns 0x00 (0000ms, 0142ms total)
T2844 016:325 JLINK_WriteReg(CONTROL, 0x00000000)  returns 0x00 (0000ms, 0142ms total)
T2844 016:325 JLINK_WriteReg(FAULTMASK, 0x00000000)  returns 0x00 (0000ms, 0142ms total)
T2844 016:325 JLINK_WriteReg(BASEPRI_MAX, 0x00000000)  returns 0x00 (0000ms, 0142ms total)
T2844 016:326 JLINK_ReadReg(R0)  returns 0x00000008 (0000ms, 0142ms total)
T2844 016:326 JLINK_ReadReg(R1)  returns 0x000000F8 (0000ms, 0142ms total)
T2844 016:326 JLINK_ReadReg(R2)  returns 0x40010800 (0000ms, 0142ms total)
T2844 016:326 JLINK_ReadReg(R3)  returns 0x28030001 (0000ms, 0142ms total)
T2844 016:326 JLINK_ReadReg(R4)  returns 0x00000000 (0000ms, 0142ms total)
T2844 016:326 JLINK_ReadReg(R5)  returns 0x20000078 (0000ms, 0142ms total)
T2844 016:326 JLINK_ReadReg(R6)  returns 0x00000000 (0000ms, 0142ms total)
T2844 016:326 JLINK_ReadReg(R7)  returns 0x00000000 (0000ms, 0142ms total)
T2844 016:326 JLINK_ReadReg(R8)  returns 0x00000000 (0000ms, 0142ms total)
T2844 016:326 JLINK_ReadReg(R9)  returns 0x20000160 (0000ms, 0142ms total)
T2844 016:326 JLINK_ReadReg(R10)  returns 0x08001784 (0000ms, 0142ms total)
T2844 016:326 JLINK_ReadReg(R11)  returns 0x00000000 (0000ms, 0142ms total)
T2844 016:326 JLINK_ReadReg(R12)  returns 0x00000001 (0000ms, 0142ms total)
T2844 016:326 JLINK_ReadReg(R13 (SP))  returns 0x200006B8 (0000ms, 0142ms total)
T2844 016:326 JLINK_ReadReg(R14)  returns 0xFFFFFFF9 (0000ms, 0142ms total)
T2844 016:326 JLINK_ReadReg(R15 (PC))  returns 0x08000774 (0000ms, 0142ms total)
T2844 016:326 JLINK_ReadReg(XPSR)  returns 0x01000045 (0000ms, 0142ms total)
T2844 016:326 JLINK_ReadReg(MSP)  returns 0x200006B8 (0000ms, 0142ms total)
T2844 016:326 JLINK_ReadReg(PSP)  returns 0x20000800 (0000ms, 0142ms total)
T2844 016:326 JLINK_ReadReg(BASEPRI)  returns 0x00000000 (0000ms, 0142ms total)
T2844 016:326 JLINK_ReadReg(CONTROL)  returns 0x00000000 (0000ms, 0142ms total)
T2844 016:326 JLINK_ReadReg(FAULTMASK)  returns 0x00000000 (0000ms, 0142ms total)
T2844 016:326 JLINK_ReadReg(BASEPRI_MAX)  returns 0x00000000 (0000ms, 0142ms total)
T2844 016:326 JLINK_WriteReg(R0, 0x00000008)  returns 0x00 (0000ms, 0142ms total)
T2844 016:326 JLINK_WriteReg(R1, 0x000000F8)  returns 0x00 (0000ms, 0142ms total)
T2844 016:326 JLINK_WriteReg(R2, 0x40010800)  returns 0x00 (0000ms, 0142ms total)
T2844 016:326 JLINK_WriteReg(R3, 0x28030001)  returns 0x00 (0000ms, 0142ms total)
T2844 016:326 JLINK_WriteReg(R4, 0x00000000)  returns 0x00 (0000ms, 0142ms total)
T2844 016:326 JLINK_WriteReg(R5, 0x20000078)  returns 0x00 (0000ms, 0142ms total)
T2844 016:326 JLINK_WriteReg(R6, 0x00000000)  returns 0x00 (0000ms, 0142ms total)
T2844 016:326 JLINK_WriteReg(R7, 0x00000000)  returns 0x00 (0000ms, 0142ms total)
T2844 016:326 JLINK_WriteReg(R8, 0x00000000)  returns 0x00 (0000ms, 0142ms total)
T2844 016:326 JLINK_WriteReg(R9, 0x20000160)  returns 0x00 (0000ms, 0142ms total)
T2844 016:326 JLINK_WriteReg(R10, 0x08001784)  returns 0x00 (0000ms, 0142ms total)
T2844 016:326 JLINK_WriteReg(R11, 0x00000000)  returns 0x00 (0000ms, 0142ms total)
T2844 016:326 JLINK_WriteReg(R12, 0x00000001)  returns 0x00 (0000ms, 0142ms total)
T2844 016:326 JLINK_WriteReg(R13 (SP), 0x200006B8)  returns 0x00 (0000ms, 0142ms total)
T2844 016:326 JLINK_WriteReg(R14, 0xFFFFFFF9)  returns 0x00 (0000ms, 0142ms total)
T2844 016:326 JLINK_WriteReg(R15 (PC), 0x08000774)  returns 0x00 (0000ms, 0142ms total)
T2844 016:326 JLINK_WriteReg(XPSR, 0x01000045)  returns 0x00 (0000ms, 0142ms total)
T2844 016:326 JLINK_WriteReg(MSP, 0x200006B8)  returns 0x00 (0000ms, 0142ms total)
T2844 016:326 JLINK_WriteReg(PSP, 0x20000800)  returns 0x00 (0000ms, 0142ms total)
T2844 016:326 JLINK_WriteReg(BASEPRI, 0x00000000)  returns 0x00 (0000ms, 0142ms total)
T2844 016:326 JLINK_WriteReg(CONTROL, 0x00000000)  returns 0x00 (0000ms, 0142ms total)
T2844 016:326 JLINK_WriteReg(FAULTMASK, 0x00000000)  returns 0x00 (0000ms, 0142ms total)
T2844 016:326 JLINK_WriteReg(BASEPRI_MAX, 0x00000000)  returns 0x00 (0000ms, 0142ms total)
T2844 016:326 JLINK_ReadReg(R0)  returns 0x00000008 (0000ms, 0142ms total)
T2844 016:326 JLINK_ReadReg(R1)  returns 0x000000F8 (0000ms, 0142ms total)
T2844 016:326 JLINK_ReadReg(R2)  returns 0x40010800 (0000ms, 0142ms total)
T2844 016:326 JLINK_ReadReg(R3)  returns 0x28030001 (0000ms, 0142ms total)
T2844 016:326 JLINK_ReadReg(R4)  returns 0x00000000 (0000ms, 0142ms total)
T2844 016:326 JLINK_ReadReg(R5)  returns 0x20000078 (0000ms, 0142ms total)
T2844 016:326 JLINK_ReadReg(R6)  returns 0x00000000 (0000ms, 0142ms total)
T2844 016:326 JLINK_ReadReg(R7)  returns 0x00000000 (0000ms, 0142ms total)
T2844 016:326 JLINK_ReadReg(R8)  returns 0x00000000 (0000ms, 0142ms total)
T2844 016:326 JLINK_ReadReg(R9)  returns 0x20000160 (0000ms, 0142ms total)
T2844 016:326 JLINK_ReadReg(R10)  returns 0x08001784 (0000ms, 0142ms total)
T2844 016:326 JLINK_ReadReg(R11)  returns 0x00000000 (0000ms, 0142ms total)
T2844 016:326 JLINK_ReadReg(R12)  returns 0x00000001 (0001ms, 0143ms total)
T2844 016:327 JLINK_ReadReg(R13 (SP))  returns 0x200006B8 (0000ms, 0143ms total)
T2844 016:327 JLINK_ReadReg(R14)  returns 0xFFFFFFF9 (0000ms, 0143ms total)
T2844 016:327 JLINK_ReadReg(R15 (PC))  returns 0x08000774 (0000ms, 0143ms total)
T2844 016:327 JLINK_ReadReg(XPSR)  returns 0x01000045 (0000ms, 0143ms total)
T2844 016:327 JLINK_ReadReg(MSP)  returns 0x200006B8 (0000ms, 0143ms total)
T2844 016:327 JLINK_ReadReg(PSP)  returns 0x20000800 (0000ms, 0143ms total)
T2844 016:327 JLINK_ReadReg(BASEPRI)  returns 0x00000000 (0000ms, 0143ms total)
T2844 016:327 JLINK_ReadReg(CONTROL)  returns 0x00000000 (0000ms, 0143ms total)
T2844 016:327 JLINK_ReadReg(FAULTMASK)  returns 0x00000000 (0000ms, 0143ms total)
T2844 016:327 JLINK_ReadReg(BASEPRI_MAX)  returns 0x00000000 (0000ms, 0143ms total)
T2844 016:327 JLINK_WriteReg(R0, 0x00000008)  returns 0x00 (0000ms, 0143ms total)
T2844 016:327 JLINK_WriteReg(R1, 0x000000F8)  returns 0x00 (0000ms, 0143ms total)
T2844 016:327 JLINK_WriteReg(R2, 0x40010800)  returns 0x00 (0000ms, 0143ms total)
T2844 016:327 JLINK_WriteReg(R3, 0x28030001)  returns 0x00 (0000ms, 0143ms total)
T2844 016:327 JLINK_WriteReg(R4, 0x00000000)  returns 0x00 (0000ms, 0143ms total)
T2844 016:327 JLINK_WriteReg(R5, 0x20000078)  returns 0x00 (0000ms, 0143ms total)
T2844 016:327 JLINK_WriteReg(R6, 0x00000000)  returns 0x00 (0000ms, 0143ms total)
T2844 016:327 JLINK_WriteReg(R7, 0x00000000)  returns 0x00 (0000ms, 0143ms total)
T2844 016:327 JLINK_WriteReg(R8, 0x00000000)  returns 0x00 (0000ms, 0143ms total)
T2844 016:327 JLINK_WriteReg(R9, 0x20000160)  returns 0x00 (0000ms, 0143ms total)
T2844 016:327 JLINK_WriteReg(R10, 0x08001784)  returns 0x00 (0000ms, 0143ms total)
T2844 016:327 JLINK_WriteReg(R11, 0x00000000)  returns 0x00 (0000ms, 0143ms total)
T2844 016:327 JLINK_WriteReg(R12, 0x00000001)  returns 0x00 (0000ms, 0143ms total)
T2844 016:327 JLINK_WriteReg(R13 (SP), 0x200006B8)  returns 0x00 (0000ms, 0143ms total)
T2844 016:327 JLINK_WriteReg(R14, 0xFFFFFFF9)  returns 0x00 (0000ms, 0143ms total)
T2844 016:327 JLINK_WriteReg(R15 (PC), 0x08000774)  returns 0x00 (0000ms, 0143ms total)
T2844 016:327 JLINK_WriteReg(XPSR, 0x01000045)  returns 0x00 (0000ms, 0143ms total)
T2844 016:327 JLINK_WriteReg(MSP, 0x200006B8)  returns 0x00 (0000ms, 0143ms total)
T2844 016:327 JLINK_WriteReg(PSP, 0x20000800)  returns 0x00 (0000ms, 0143ms total)
T2844 016:327 JLINK_WriteReg(BASEPRI, 0x00000000)  returns 0x00 (0000ms, 0143ms total)
T2844 016:327 JLINK_WriteReg(CONTROL, 0x00000000)  returns 0x00 (0000ms, 0143ms total)
T2844 016:327 JLINK_WriteReg(FAULTMASK, 0x00000000)  returns 0x00 (0000ms, 0143ms total)
T2844 016:327 JLINK_WriteReg(BASEPRI_MAX, 0x00000000)  returns 0x00 (0000ms, 0143ms total)
T2844 016:327 JLINK_ReadMem (0x00000000, 0x0001 Bytes, ...) -- CPU_ReadMem(4 bytes @ 0x00000004) -- CPU_ReadMem(64 bytes @ 0x08000000) -- Updating C cache (64 bytes @ 0x08000000) -- Read from C cache (1 bytes @ 0x08000000) - Data: D8  returns 0x00 (0001ms, 0144ms total)
T2844 016:333 JLINK_ReadMem (0x08000774, 0x003C Bytes, ...) -- CPU_ReadMem(128 bytes @ 0x08000740) -- Updating C cache (128 bytes @ 0x08000740) -- Read from C cache (60 bytes @ 0x08000774) - Data: 46 49 89 88 C8 B2 46 49 09 78 11 F0 80 0F 2E D1 ...  returns 0x00 (0001ms, 0145ms total)
T312C 016:335 JLINK_ReadReg(R0)  returns 0x00000008 (0000ms, 0145ms total)
T312C 016:335 JLINK_ReadReg(R1)  returns 0x000000F8 (0000ms, 0145ms total)
T312C 016:335 JLINK_ReadReg(R2)  returns 0x40010800 (0000ms, 0145ms total)
T312C 016:335 JLINK_ReadReg(R3)  returns 0x28030001 (0000ms, 0145ms total)
T312C 016:335 JLINK_ReadReg(R4)  returns 0x00000000 (0000ms, 0145ms total)
T312C 016:335 JLINK_ReadReg(R5)  returns 0x20000078 (0000ms, 0145ms total)
T312C 016:335 JLINK_ReadReg(R6)  returns 0x00000000 (0000ms, 0145ms total)
T312C 016:335 JLINK_ReadReg(R7)  returns 0x00000000 (0000ms, 0145ms total)
T312C 016:335 JLINK_ReadReg(R8)  returns 0x00000000 (0000ms, 0145ms total)
T312C 016:335 JLINK_ReadReg(R9)  returns 0x20000160 (0000ms, 0145ms total)
T312C 016:335 JLINK_ReadReg(R10)  returns 0x08001784 (0000ms, 0145ms total)
T312C 016:336 JLINK_ReadReg(R11)  returns 0x00000000 (0000ms, 0145ms total)
T312C 016:336 JLINK_ReadReg(R12)  returns 0x00000001 (0000ms, 0145ms total)
T312C 016:336 JLINK_ReadReg(R13 (SP))  returns 0x200006B8 (0000ms, 0145ms total)
T312C 016:336 JLINK_ReadReg(R14)  returns 0xFFFFFFF9 (0000ms, 0145ms total)
T312C 016:336 JLINK_ReadReg(R15 (PC))  returns 0x08000774 (0000ms, 0145ms total)
T312C 016:336 JLINK_ReadReg(XPSR)  returns 0x01000045 (0000ms, 0145ms total)
T312C 016:336 JLINK_ReadReg(MSP)  returns 0x200006B8 (0000ms, 0145ms total)
T312C 016:336 JLINK_ReadReg(PSP)  returns 0x20000800 (0000ms, 0145ms total)
T312C 016:336 JLINK_ReadReg(BASEPRI)  returns 0x00000000 (0000ms, 0145ms total)
T312C 016:336 JLINK_ReadReg(CONTROL)  returns 0x00000000 (0000ms, 0145ms total)
T312C 016:336 JLINK_ReadReg(FAULTMASK)  returns 0x00000000 (0000ms, 0145ms total)
T312C 016:336 JLINK_ReadReg(BASEPRI_MAX)  returns 0x00000000 (0000ms, 0145ms total)
T312C 016:336 JLINK_ReadMem (0xE000ED28, 0x0004 Bytes, ...) -- CPU_ReadMem(4 bytes @ 0xE000ED28) - Data: 00 00 00 00  returns 0x00 (0000ms, 0145ms total)
T312C 018:270 JLINK_Step() -- Read from C cache (2 bytes @ 0x08000774) -- CPU_ReadMem(4 bytes @ 0xE0001004) -- CPU_ReadMem(64 bytes @ 0x08000880) -- Updating C cache (64 bytes @ 0x08000880) -- Read from C cache (4 bytes @ 0x08000890) -- Simulated  returns 0x00 (0002ms, 0147ms total)
T312C 018:272 JLINK_ReadReg(R15 (PC))  returns 0x08000776 (0000ms, 0147ms total)
T312C 018:272 JLINK_ReadReg(XPSR)  returns 0x01000045 (0000ms, 0147ms total)
T312C 018:272 JLINK_SetBPEx(Addr = 0x08000774, Type = 0xFFFFFFF2)  returns 0x00000005 (0000ms, 0147ms total)
T312C 018:272 JLINK_SetBPEx(Addr = 0x080001E8, Type = 0xFFFFFFF2)  returns 0x00000006 (0000ms, 0147ms total)
T312C 018:272 JLINK_Go() -- CPU_WriteMem(4 bytes @ 0xE0002000) -- CPU_WriteMem(4 bytes @ 0xE0002000) -- CPU_ReadMem(4 bytes @ 0xE0001000) -- CPU_WriteMem(4 bytes @ 0xE0001004) (0002ms, 0149ms total)
T312C 018:375 JLINK_IsHalted()  returns FALSE (0000ms, 0149ms total)
T312C 018:476 JLINK_IsHalted()  returns FALSE (0000ms, 0149ms total)
T312C 018:577 JLINK_IsHalted()  returns FALSE (0000ms, 0149ms total)
T312C 018:678 JLINK_IsHalted()  returns FALSE (0000ms, 0149ms total)
T312C 018:779 JLINK_IsHalted()  returns TRUE (0002ms, 0151ms total)
T312C 018:781 JLINK_Halt()  returns 0x00 (0000ms, 0149ms total)
T312C 018:781 JLINK_IsHalted()  returns TRUE (0000ms, 0149ms total)
T312C 018:781 JLINK_IsHalted()  returns TRUE (0000ms, 0149ms total)
T312C 018:781 JLINK_IsHalted()  returns TRUE (0000ms, 0149ms total)
T312C 018:781 JLINK_ReadReg(R15 (PC))  returns 0x08000774 (0000ms, 0149ms total)
T312C 018:781 JLINK_ReadReg(XPSR)  returns 0x01000045 (0000ms, 0149ms total)
T312C 018:781 JLINK_ClrBPEx(BPHandle = 0x00000005)  returns 0x00 (0000ms, 0149ms total)
T312C 018:781 JLINK_ClrBPEx(BPHandle = 0x00000006)  returns 0x00 (0000ms, 0149ms total)
T312C 018:781 JLINK_ReadMemU32(0xE000ED30, 0x0001 Items, ...) -- CPU_ReadMem(4 bytes @ 0xE000ED30) - Data: 03 00 00 00  returns 0x01 (0001ms, 0150ms total)
T312C 018:782 JLINK_ReadMemU32(0xE0001028, 0x0001 Items, ...) -- CPU_ReadMem(4 bytes @ 0xE0001028) - Data: 00 00 00 00  returns 0x01 (0000ms, 0150ms total)
T312C 018:782 JLINK_ReadMemU32(0xE0001038, 0x0001 Items, ...) -- CPU_ReadMem(4 bytes @ 0xE0001038) - Data: 00 02 00 00  returns 0x01 (0001ms, 0151ms total)
T312C 018:783 JLINK_ReadMemU32(0xE0001048, 0x0001 Items, ...) -- CPU_ReadMem(4 bytes @ 0xE0001048) - Data: 00 00 00 00  returns 0x01 (0000ms, 0151ms total)
T312C 018:783 JLINK_ReadMemU32(0xE0001058, 0x0001 Items, ...) -- CPU_ReadMem(4 bytes @ 0xE0001058) - Data: 00 00 00 00  returns 0x01 (0001ms, 0152ms total)
T2844 018:784 JLINK_ReadReg(R0)  returns 0x00000001 (0001ms, 0153ms total)
T2844 018:785 JLINK_ReadReg(R1)  returns 0x000000E0 (0000ms, 0153ms total)
T2844 018:785 JLINK_ReadReg(R2)  returns 0xE000E000 (0000ms, 0153ms total)
T2844 018:785 JLINK_ReadReg(R3)  returns 0xE000E000 (0000ms, 0153ms total)
T2844 018:785 JLINK_ReadReg(R4)  returns 0x00000001 (0000ms, 0153ms total)
T2844 018:785 JLINK_ReadReg(R5)  returns 0x20000078 (0000ms, 0153ms total)
T2844 018:785 JLINK_ReadReg(R6)  returns 0x00000000 (0000ms, 0153ms total)
T2844 018:785 JLINK_ReadReg(R7)  returns 0x00000000 (0000ms, 0153ms total)
T2844 018:785 JLINK_ReadReg(R8)  returns 0x00000000 (0000ms, 0153ms total)
T2844 018:785 JLINK_ReadReg(R9)  returns 0x20000160 (0000ms, 0153ms total)
T2844 018:785 JLINK_ReadReg(R10)  returns 0x08001784 (0000ms, 0153ms total)
T2844 018:785 JLINK_ReadReg(R11)  returns 0x00000000 (0000ms, 0153ms total)
T2844 018:785 JLINK_ReadReg(R12)  returns 0x00000001 (0000ms, 0153ms total)
T2844 018:785 JLINK_ReadReg(R13 (SP))  returns 0x200006B8 (0000ms, 0153ms total)
T2844 018:785 JLINK_ReadReg(R14)  returns 0xFFFFFFF9 (0000ms, 0153ms total)
T2844 018:785 JLINK_ReadReg(R15 (PC))  returns 0x08000774 (0000ms, 0153ms total)
T2844 018:785 JLINK_ReadReg(XPSR)  returns 0x01000045 (0000ms, 0153ms total)
T2844 018:785 JLINK_ReadReg(MSP)  returns 0x200006B8 (0000ms, 0153ms total)
T2844 018:785 JLINK_ReadReg(PSP)  returns 0x20000800 (0000ms, 0153ms total)
T2844 018:785 JLINK_ReadReg(BASEPRI)  returns 0x00000000 (0000ms, 0153ms total)
T2844 018:785 JLINK_ReadReg(CONTROL)  returns 0x00000000 (0000ms, 0153ms total)
T2844 018:786 JLINK_ReadReg(FAULTMASK)  returns 0x00000000 (0000ms, 0153ms total)
T2844 018:786 JLINK_ReadReg(BASEPRI_MAX)  returns 0x00000000 (0000ms, 0153ms total)
T2844 018:786 JLINK_ReadMem (0x200006D0, 0x0004 Bytes, ...) -- CPU_ReadMem(64 bytes @ 0x200006C0) -- Updating C cache (64 bytes @ 0x200006C0) -- Read from C cache (4 bytes @ 0x200006D0) - Data: 08 07 00 08  returns 0x00 (0001ms, 0154ms total)
T2844 018:787 JLINK_ReadMem (0x200006D4, 0x0004 Bytes, ...) -- Read from C cache (4 bytes @ 0x200006D4) - Data: 00 00 00 41  returns 0x00 (0000ms, 0154ms total)
T2844 018:787 JLINK_ReadMem (0x200006CC, 0x0004 Bytes, ...) -- Read from C cache (4 bytes @ 0x200006CC) - Data: B3 02 00 08  returns 0x00 (0000ms, 0154ms total)
T2844 018:787 JLINK_ReadMem (0xE000ED28, 0x0004 Bytes, ...) -- CPU_ReadMem(4 bytes @ 0xE000ED28) - Data: 00 00 00 00  returns 0x00 (0000ms, 0154ms total)
T2844 018:789 JLINK_WriteReg(R0, 0x00000001)  returns 0x00 (0000ms, 0154ms total)
T2844 018:789 JLINK_WriteReg(R1, 0x000000E0)  returns 0x00 (0000ms, 0154ms total)
T2844 018:789 JLINK_WriteReg(R2, 0xE000E000)  returns 0x00 (0000ms, 0154ms total)
T2844 018:789 JLINK_WriteReg(R3, 0xE000E000)  returns 0x00 (0000ms, 0154ms total)
T2844 018:789 JLINK_WriteReg(R4, 0x00000001)  returns 0x00 (0000ms, 0154ms total)
T2844 018:789 JLINK_WriteReg(R5, 0x20000078)  returns 0x00 (0000ms, 0154ms total)
T2844 018:789 JLINK_WriteReg(R6, 0x00000000)  returns 0x00 (0001ms, 0155ms total)
T2844 018:790 JLINK_WriteReg(R7, 0x00000000)  returns 0x00 (0000ms, 0155ms total)
T2844 018:790 JLINK_WriteReg(R8, 0x00000000)  returns 0x00 (0000ms, 0155ms total)
T2844 018:790 JLINK_WriteReg(R9, 0x20000160)  returns 0x00 (0000ms, 0155ms total)
T2844 018:790 JLINK_WriteReg(R10, 0x08001784)  returns 0x00 (0000ms, 0155ms total)
T2844 018:790 JLINK_WriteReg(R11, 0x00000000)  returns 0x00 (0000ms, 0155ms total)
T2844 018:790 JLINK_WriteReg(R12, 0x00000001)  returns 0x00 (0000ms, 0155ms total)
T2844 018:790 JLINK_WriteReg(R13 (SP), 0x200006B8)  returns 0x00 (0000ms, 0155ms total)
T2844 018:790 JLINK_WriteReg(R14, 0xFFFFFFF9)  returns 0x00 (0000ms, 0155ms total)
T2844 018:790 JLINK_WriteReg(R15 (PC), 0x08000774)  returns 0x00 (0000ms, 0155ms total)
T2844 018:790 JLINK_WriteReg(XPSR, 0x01000045)  returns 0x00 (0000ms, 0155ms total)
T2844 018:790 JLINK_WriteReg(MSP, 0x200006B8)  returns 0x00 (0000ms, 0155ms total)
T2844 018:790 JLINK_WriteReg(PSP, 0x20000800)  returns 0x00 (0000ms, 0155ms total)
T2844 018:790 JLINK_WriteReg(BASEPRI, 0x00000000)  returns 0x00 (0000ms, 0155ms total)
T2844 018:790 JLINK_WriteReg(CONTROL, 0x00000000)  returns 0x00 (0000ms, 0155ms total)
T2844 018:790 JLINK_WriteReg(FAULTMASK, 0x00000000)  returns 0x00 (0000ms, 0155ms total)
T2844 018:790 JLINK_WriteReg(BASEPRI_MAX, 0x00000000)  returns 0x00 (0000ms, 0155ms total)
T2844 018:791 JLINK_ReadReg(R0)  returns 0x00000001 (0000ms, 0155ms total)
T2844 018:791 JLINK_ReadReg(R1)  returns 0x000000E0 (0000ms, 0155ms total)
T2844 018:791 JLINK_ReadReg(R2)  returns 0xE000E000 (0000ms, 0155ms total)
T2844 018:791 JLINK_ReadReg(R3)  returns 0xE000E000 (0000ms, 0155ms total)
T2844 018:791 JLINK_ReadReg(R4)  returns 0x00000001 (0001ms, 0156ms total)
T2844 018:792 JLINK_ReadReg(R5)  returns 0x20000078 (0000ms, 0156ms total)
T2844 018:792 JLINK_ReadReg(R6)  returns 0x00000000 (0000ms, 0156ms total)
T2844 018:792 JLINK_ReadReg(R7)  returns 0x00000000 (0000ms, 0156ms total)
T2844 018:792 JLINK_ReadReg(R8)  returns 0x00000000 (0000ms, 0156ms total)
T2844 018:792 JLINK_ReadReg(R9)  returns 0x20000160 (0000ms, 0156ms total)
T2844 018:792 JLINK_ReadReg(R10)  returns 0x08001784 (0000ms, 0156ms total)
T2844 018:792 JLINK_ReadReg(R11)  returns 0x00000000 (0000ms, 0156ms total)
T2844 018:792 JLINK_ReadReg(R12)  returns 0x00000001 (0000ms, 0156ms total)
T2844 018:792 JLINK_ReadReg(R13 (SP))  returns 0x200006B8 (0000ms, 0156ms total)
T2844 018:792 JLINK_ReadReg(R14)  returns 0xFFFFFFF9 (0000ms, 0156ms total)
T2844 018:792 JLINK_ReadReg(R15 (PC))  returns 0x08000774 (0000ms, 0156ms total)
T2844 018:792 JLINK_ReadReg(XPSR)  returns 0x01000045 (0000ms, 0156ms total)
T2844 018:792 JLINK_ReadReg(MSP)  returns 0x200006B8 (0000ms, 0156ms total)
T2844 018:792 JLINK_ReadReg(PSP)  returns 0x20000800 (0000ms, 0156ms total)
T2844 018:792 JLINK_ReadReg(BASEPRI)  returns 0x00000000 (0000ms, 0156ms total)
T2844 018:792 JLINK_ReadReg(CONTROL)  returns 0x00000000 (0000ms, 0156ms total)
T2844 018:792 JLINK_ReadReg(FAULTMASK)  returns 0x00000000 (0000ms, 0156ms total)
T2844 018:792 JLINK_ReadReg(BASEPRI_MAX)  returns 0x00000000 (0000ms, 0156ms total)
T2844 018:792 JLINK_WriteReg(R0, 0x00000001)  returns 0x00 (0000ms, 0156ms total)
T2844 018:792 JLINK_WriteReg(R1, 0x000000E0)  returns 0x00 (0000ms, 0156ms total)
T2844 018:792 JLINK_WriteReg(R2, 0xE000E000)  returns 0x00 (0001ms, 0157ms total)
T2844 018:793 JLINK_WriteReg(R3, 0xE000E000)  returns 0x00 (0000ms, 0157ms total)
T2844 018:793 JLINK_WriteReg(R4, 0x00000001)  returns 0x00 (0000ms, 0157ms total)
T2844 018:793 JLINK_WriteReg(R5, 0x20000078)  returns 0x00 (0000ms, 0157ms total)
T2844 018:793 JLINK_WriteReg(R6, 0x00000000)  returns 0x00 (0000ms, 0157ms total)
T2844 018:793 JLINK_WriteReg(R7, 0x00000000)  returns 0x00 (0000ms, 0157ms total)
T2844 018:793 JLINK_WriteReg(R8, 0x00000000)  returns 0x00 (0000ms, 0157ms total)
T2844 018:793 JLINK_WriteReg(R9, 0x20000160)  returns 0x00 (0000ms, 0157ms total)
T2844 018:793 JLINK_WriteReg(R10, 0x08001784)  returns 0x00 (0000ms, 0157ms total)
T2844 018:793 JLINK_WriteReg(R11, 0x00000000)  returns 0x00 (0000ms, 0157ms total)
T2844 018:793 JLINK_WriteReg(R12, 0x00000001)  returns 0x00 (0000ms, 0157ms total)
T2844 018:793 JLINK_WriteReg(R13 (SP), 0x200006B8)  returns 0x00 (0000ms, 0157ms total)
